# MHz Z RI R 1
100.0 12.48 -152.34
100.1 12.51 -151.92
100.2 12.54 -151.49
100.3 12.58 -151.06
100.4 12.61 -150.64
100.5 12.64 -150.22
100.6 12.67 -149.79
100.7 12.71 -149.37
100.8 12.74 -148.95
100.9 12.77 -148.52
101.0 12.8 -148.1
101.1 12.84 -147.68
101.2 12.87 -147.26
101.3 12.9 -146.84
101.4 12.94 -146.42
101.5 12.97 -146.0
101.6 13.0 -145.58
101.7 13.04 -145.16
101.8 13.07 -144.74
101.9 13.1 -144.32
102.0 13.14 -143.91
102.1 13.17 -143.49
102.2 13.2 -143.07
102.3 13.24 -142.66
102.4 13.27 -142.24
102.5 13.31 -141.82
102.6 13.34 -141.41
102.7 13.37 -140.99
102.8 13.41 -140.58
102.9 13.44 -140.16
103.0 13.48 -139.75
103.1 13.51 -139.34
103.2 13.55 -138.92
103.3 13.58 -138.51
103.4 13.61 -138.1
103.5 13.65 -137.68
103.6 13.68 -137.27
103.7 13.72 -136.86
103.8 13.75 -136.45
103.9 13.79 -136.04
104.0 13.82 -135.63
104.1 13.86 -135.22
104.2 13.89 -134.81
104.3 13.93 -134.4
104.4 13.96 -133.99
104.5 14.0 -133.58
104.6 14.04 -133.18
104.7 14.07 -132.77
104.8 14.11 -132.36
104.9 14.14 -131.96
105.0 14.18 -131.55
105.1 14.21 -131.14
105.2 14.25 -130.74
105.3 14.29 -130.33
105.4 14.32 -129.93
105.5 14.36 -129.52
105.6 14.39 -129.12
105.7 14.43 -128.71
105.8 14.47 -128.31
105.9 14.5 -127.91
106.0 14.54 -127.5
106.1 14.58 -127.1
106.2 14.61 -126.7
106.3 14.65 -126.29
106.4 14.69 -125.89
106.5 14.72 -125.49
106.6 14.76 -125.09
106.7 14.8 -124.69
106.8 14.83 -124.29
106.9 14.87 -123.89
107.0 14.91 -123.49
107.1 14.95 -123.09
107.2 14.98 -122.69
107.3 15.02 -122.29
107.4 15.06 -121.89
107.5 15.1 -121.5
107.6 15.14 -121.1
107.7 15.17 -120.7
107.8 15.21 -120.3
107.9 15.25 -119.91
108.0 15.29 -119.51
108.1 15.33 -119.11
108.2 15.36 -118.72
108.3 15.4 -118.32
108.4 15.44 -117.93
108.5 15.48 -117.53
108.6 15.52 -117.14
108.7 15.56 -116.74
108.8 15.6 -116.35
108.9 15.63 -115.95
109.0 15.67 -115.56
109.1 15.71 -115.17
109.2 15.75 -114.77
109.3 15.79 -114.38
109.4 15.83 -113.99
109.5 15.87 -113.59
109.6 15.91 -113.2
109.7 16.03 -113.84
109.8 16.07 -113.45
109.9 16.11 -113.06
110.0 16.15 -112.68
110.1 16.19 -112.29
110.2 16.23 -111.9
110.3 16.27 -111.51
110.4 16.31 -111.13
110.5 16.35 -110.74
110.6 16.39 -110.35
110.7 16.43 -109.97
110.8 16.47 -109.58
110.9 16.51 -109.2
111.0 16.56 -108.81
111.1 16.6 -108.43
111.2 16.64 -108.04
111.3 16.68 -107.66
111.4 16.72 -107.28
111.5 16.76 -106.89
111.6 16.81 -106.51
111.7 16.85 -106.13
111.8 16.89 -105.74
111.9 16.93 -105.36
112.0 16.97 -104.98
112.1 17.02 -104.6
112.2 17.06 -104.22
112.3 17.1 -103.83
112.4 17.14 -103.45
112.5 17.19 -103.07
112.6 17.23 -102.69
112.7 17.27 -102.31
112.8 17.32 -101.93
112.9 17.36 -101.55
113.0 17.4 -101.17
113.1 17.45 -100.79
113.2 17.49 -100.41
113.3 17.53 -100.03
113.4 17.58 -99.65
113.5 17.62 -99.27
113.6 17.66 -98.89
113.7 17.71 -98.52
113.8 17.75 -98.14
113.9 17.8 -97.76
114.0 17.84 -97.38
114.1 17.89 -97.01
114.2 17.93 -96.63
114.3 17.97 -96.25
114.4 18.02 -95.87
114.5 18.06 -95.5
114.6 18.11 -95.12
114.7 18.15 -94.74
114.8 18.2 -94.37
114.9 18.24 -93.99
115.0 18.29 -93.62
115.1 18.33 -93.24
115.2 18.38 -92.87
115.3 18.43 -92.49
115.4 18.47 -92.12
115.5 18.52 -91.74
115.6 18.56 -91.37
115.7 18.61 -91.0
115.8 18.65 -90.62
115.9 18.7 -90.25
116.0 18.75 -89.88
116.1 18.79 -89.5
116.2 18.84 -89.13
116.3 18.89 -88.76
116.4 18.93 -88.39
116.5 18.98 -88.01
116.6 19.03 -87.64
116.7 19.07 -87.27
116.8 19.12 -86.9
116.9 19.17 -86.53
117.0 19.22 -86.15
117.1 19.26 -85.78
117.2 19.31 -85.41
117.3 19.36 -85.04
117.4 19.41 -84.67
117.5 19.45 -84.3
117.6 19.5 -83.93
117.7 19.55 -83.56
117.8 19.6 -83.19
117.9 19.65 -82.82
118.0 19.7 -82.45
118.1 19.74 -82.08
118.2 19.79 -81.71
118.3 19.84 -81.34
118.4 19.89 -80.97
118.5 19.94 -80.6
118.6 19.99 -80.24
118.7 20.04 -79.87
118.8 20.09 -79.5
118.9 20.14 -79.13
119.0 20.19 -78.76
119.1 20.24 -78.4
119.2 20.29 -78.03
119.3 20.34 -77.66
119.4 20.39 -77.3
119.5 20.44 -76.93
119.6 20.49 -76.56
119.7 20.54 -76.19
119.8 20.59 -75.83
119.9 20.64 -75.46
120.0 20.69 -75.09
120.1 20.74 -74.73
120.2 20.79 -74.36
120.3 20.84 -74.0
120.4 20.89 -73.63
120.5 20.94 -73.26
120.6 21.0 -72.9
120.7 21.05 -72.53
120.8 21.1 -72.17
120.9 21.15 -71.8
121.0 21.2 -71.44
121.1 21.26 -71.07
121.2 21.31 -70.71
121.3 21.36 -70.35
121.4 21.41 -69.98
121.5 21.46 -69.62
121.6 21.52 -69.25
121.7 21.57 -68.89
121.8 21.62 -68.52
121.9 21.68 -68.16
122.0 21.73 -67.8
122.1 21.78 -67.43
122.2 21.84 -67.07
122.3 21.89 -66.71
122.4 21.94 -66.35
122.5 22.0 -65.98
122.6 22.05 -65.62
122.7 22.11 -65.26
122.8 22.16 -64.89
122.9 22.21 -64.53
123.0 22.27 -64.17
123.1 22.32 -63.81
123.2 22.38 -63.45
123.3 22.43 -63.08
123.4 22.49 -62.72
123.5 22.54 -62.36
123.6 22.6 -62.0
123.7 22.65 -61.64
123.8 22.71 -61.28
123.9 22.76 -60.91
124.0 22.82 -60.55
124.1 22.88 -60.19
124.2 22.93 -59.83
124.3 22.99 -59.47
124.4 23.04 -59.11
124.5 23.1 -58.75
124.6 23.16 -58.39
124.7 23.21 -58.03
124.8 23.27 -57.67
124.9 23.33 -57.31
125.0 23.39 -56.95
125.1 23.44 -56.59
125.2 23.5 -56.23
125.3 23.56 -55.87
125.4 23.62 -55.51
125.5 23.67 -55.15
125.6 23.73 -54.79
125.7 23.79 -54.43
125.8 23.85 -54.07
125.9 23.91 -53.71
126.0 23.96 -53.35
126.1 24.02 -52.99
126.2 24.08 -52.63
126.3 24.14 -52.27
126.4 24.2 -51.92
126.5 24.26 -51.56
126.6 24.32 -51.2
126.7 24.38 -50.84
126.8 24.44 -50.48
126.9 24.5 -50.12
127.0 24.56 -49.77
127.1 24.62 -49.41
127.2 24.68 -49.05
127.3 24.74 -48.69
127.4 24.8 -48.33
127.5 24.86 -47.97
127.6 24.92 -47.62
127.7 24.98 -47.26
127.8 25.04 -46.9
127.9 25.1 -46.54
128.0 25.16 -46.19
128.1 25.23 -45.83
128.2 25.29 -45.47
128.3 25.35 -45.11
128.4 25.41 -44.76
128.5 25.47 -44.4
128.6 25.54 -44.04
128.7 25.6 -43.68
128.8 25.66 -43.33
128.9 25.72 -42.97
129.0 25.79 -42.61
129.1 25.85 -42.26
129.2 25.91 -41.9
129.3 25.98 -41.54
129.4 26.04 -41.18
129.5 26.1 -40.83
129.6 26.17 -40.47
129.7 26.23 -40.11
129.8 26.29 -39.76
129.9 26.36 -39.4
130.0 26.42 -39.04
130.1 26.49 -38.69
130.2 26.55 -38.33
130.3 26.62 -37.97
130.4 26.68 -37.62
130.5 26.75 -37.26
130.6 26.81 -36.91
130.7 26.88 -36.55
130.8 26.94 -36.19
130.9 27.01 -35.84
131.0 27.08 -35.48
131.1 27.14 -35.12
131.2 27.21 -34.77
131.3 27.28 -34.41
131.4 27.34 -34.06
131.5 27.41 -33.7
131.6 27.48 -33.34
131.7 27.54 -32.99
131.8 27.61 -32.63
131.9 27.68 -32.28
132.0 27.75 -31.92
132.1 27.81 -31.57
132.2 27.88 -31.21
132.3 27.95 -30.85
132.4 28.02 -30.5
132.5 28.09 -30.14
132.6 28.16 -29.79
132.7 28.22 -29.43
132.8 28.29 -29.07
132.9 28.36 -28.72
133.0 28.43 -28.36
133.1 28.5 -28.01
133.2 28.57 -27.65
133.3 28.64 -27.3
133.4 28.71 -26.94
133.5 28.78 -26.58
133.6 28.85 -26.23
133.7 28.92 -25.87
133.8 28.99 -25.52
133.9 29.06 -25.16
134.0 29.14 -24.81
134.1 29.21 -24.45
134.2 29.28 -24.1
134.3 29.35 -23.74
134.4 29.42 -23.38
134.5 29.49 -23.03
134.6 29.57 -22.67
134.7 29.64 -22.32
134.8 29.71 -21.96
134.9 29.78 -21.61
135.0 29.86 -21.25
135.1 29.93 -20.89
135.2 30.0 -20.54
135.3 30.08 -20.18
135.4 30.15 -19.83
135.5 30.22 -19.47
135.6 30.3 -19.12
135.7 30.37 -18.76
135.8 30.45 -18.41
135.9 30.52 -18.05
136.0 30.6 -17.69
136.1 30.67 -17.34
136.2 30.75 -16.98
136.3 30.82 -16.63
136.4 30.9 -16.27
136.5 30.97 -15.91
136.6 31.05 -15.56
136.7 31.13 -15.2
136.8 31.2 -14.85
136.9 31.28 -14.49
137.0 31.36 -14.14
137.1 31.43 -13.78
137.2 31.51 -13.42
137.3 31.59 -13.07
137.4 31.67 -12.71
137.5 31.74 -12.35
137.6 31.82 -12.0
137.7 31.9 -11.64
137.8 31.98 -11.29
137.9 32.06 -10.93
138.0 32.13 -10.58
138.1 32.21 -10.22
138.2 32.29 -9.86
138.3 32.37 -9.51
138.4 32.45 -9.15
138.5 32.53 -8.79
138.6 32.61 -8.44
138.7 32.69 -8.08
138.8 32.77 -7.72
138.9 32.85 -7.37
139.0 32.93 -7.01
139.1 33.01 -6.65
139.2 33.1 -6.3
139.3 33.18 -5.94
139.4 33.26 -5.58
139.5 33.34 -5.23
139.6 33.42 -4.87
139.7 33.5 -4.51
139.8 33.59 -4.16
139.9 33.67 -3.8
140.0 33.75 -3.44
140.1 33.84 -3.08
140.2 34.01 -3.08
140.3 34.1 -2.72
140.4 34.18 -2.36
140.5 34.27 -2.01
140.6 34.35 -1.65
140.7 34.44 -1.29
140.8 34.52 -0.93
140.9 34.61 -0.58
141.0 34.69 -0.22
141.1 34.78 0.14
141.2 34.87 0.5
141.3 34.95 0.85
141.4 35.04 1.21
141.5 35.13 1.57
141.6 35.21 1.93
141.7 35.3 2.29
141.8 35.39 2.64
141.9 35.48 3.0
142.0 35.56 3.36
142.1 35.65 3.72
142.2 35.74 4.08
142.3 35.83 4.44
142.4 35.92 4.79
142.5 36.01 5.15
142.6 36.1 5.51
142.7 36.19 5.87
142.8 36.28 6.23
142.9 36.37 6.59
143.0 36.46 6.95
143.1 36.55 7.31
143.2 36.64 7.67
143.3 36.73 8.03
143.4 36.82 8.38
143.5 36.91 8.74
143.6 37.0 9.1
143.7 37.1 9.46
143.8 37.19 9.82
143.9 37.28 10.18
144.0 37.37 10.54
144.1 37.47 10.9
144.2 37.56 11.26
144.3 37.65 11.62
144.4 37.75 11.98
144.5 37.84 12.34
144.6 37.94 12.7
144.7 38.03 13.07
144.8 38.12 13.43
144.9 38.22 13.79
145.0 38.32 14.15
145.1 38.41 14.51
145.2 38.51 14.87
145.3 38.6 15.23
145.4 38.7 15.59
145.5 38.8 15.95
145.6 38.89 16.32
145.7 38.99 16.68
145.8 39.09 17.04
145.9 39.19 17.4
146.0 39.28 17.76
146.1 39.38 18.13
146.2 39.48 18.49
146.3 39.58 18.85
146.4 39.68 19.21
146.5 39.78 19.57
146.6 39.88 19.94
146.7 39.98 20.3
146.8 40.08 20.66
146.9 40.18 21.03
147.0 40.28 21.39
147.1 40.38 21.75
147.2 40.48 22.12
147.3 40.58 22.48
147.4 40.68 22.85
147.5 40.79 23.21
147.6 40.89 23.57
147.7 40.99 23.94
147.8 41.09 24.3
147.9 41.2 24.67
148.0 41.3 25.03
148.1 41.4 25.4
148.2 41.51 25.76
148.3 41.61 26.13
148.4 41.72 26.49
148.5 41.82 26.86
148.6 41.93 27.22
148.7 42.03 27.59
148.8 42.14 27.95
148.9 42.25 28.32
149.0 42.35 28.69
149.1 42.46 29.05
149.2 42.57 29.42
149.3 42.67 29.78
149.4 42.78 30.15
149.5 42.89 30.52
149.6 43.0 30.89
149.7 43.11 31.25
149.8 43.21 31.62
149.9 43.32 31.99
150.0 43.43 32.35
150.1 43.54 32.72
150.2 43.65 33.09
150.3 43.76 33.46
150.4 43.87 33.83
150.5 43.98 34.19
150.6 44.1 34.56
150.7 44.21 34.93
150.8 44.32 35.3
150.9 44.43 35.67
151.0 44.54 36.04
151.1 44.66 36.41
151.2 44.77 36.78
151.3 44.88 37.15
151.4 45.0 37.52
151.5 45.11 37.89
151.6 45.23 38.26
151.7 45.34 38.63
151.8 45.46 39.0
151.9 45.57 39.37
152.0 45.69 39.74
152.1 45.8 40.11
152.2 45.92 40.48
152.3 46.04 40.85
152.4 46.15 41.23
152.5 46.27 41.6
152.6 46.39 41.97
152.7 46.51 42.34
152.8 46.63 42.72
152.9 46.75 43.09
153.0 46.86 43.46
153.1 46.98 43.83
153.2 47.1 44.21
153.3 47.22 44.58
153.4 47.34 44.95
153.5 47.47 45.33
153.6 47.59 45.7
153.7 47.71 46.08
153.8 47.83 46.45
153.9 47.95 46.82
154.0 48.08 47.2
154.1 48.2 47.57
154.2 48.32 47.95
154.3 48.45 48.33
154.4 48.57 48.7
154.5 48.69 49.08
154.6 48.82 49.45
154.7 48.94 49.83
154.8 49.07 50.21
154.9 49.2 50.58
155.0 49.32 50.96
155.1 49.45 51.33
155.2 49.58 51.71
155.3 49.7 52.09
155.4 49.83 52.47
155.5 49.96 52.85
155.6 50.09 53.22
155.7 50.22 53.6
155.8 50.35 53.98
155.9 50.48 54.36
156.0 50.61 54.74
156.1 50.74 55.12
156.2 50.87 55.5
156.3 51.0 55.88
156.4 51.13 56.26
156.5 51.26 56.64
156.6 51.39 57.02
156.7 51.53 57.4
156.8 51.66 57.78
156.9 51.79 58.16
157.0 51.93 58.54
157.1 52.06 58.92
157.2 52.2 59.3
157.3 52.33 59.68
157.4 52.47 60.07
157.5 52.6 60.45
157.6 52.74 60.83
157.7 52.88 61.21
157.8 53.01 61.6
157.9 53.15 61.98
158.0 53.29 62.37
158.1 53.43 62.75
158.2 53.57 63.13
158.3 53.71 63.52
158.4 53.85 63.9
158.5 53.67 64.64
158.6 53.81 65.03
158.7 53.95 65.41
158.8 54.09 65.8
158.9 54.23 66.18
159.0 54.37 66.57
159.1 54.51 66.96
159.2 54.65 67.34
159.3 54.79 67.73
159.4 54.93 68.11
159.5 55.07 68.5
159.6 55.22 68.89
159.7 55.36 69.28
159.8 55.5 69.66
159.9 55.65 70.05
160.0 55.79 70.44
160.1 55.93 70.83
160.2 56.08 71.22
160.3 56.22 71.61
160.4 56.37 71.99
160.5 56.52 72.39
160.6 56.66 72.77
160.7 56.81 73.17
160.8 56.96 73.56
160.9 57.11 73.95
161.0 57.25 74.34
161.1 57.4 74.73
161.2 57.55 75.12
161.3 57.7 75.51
161.4 57.85 75.9
161.5 58.0 76.29
161.6 58.15 76.69
161.7 58.31 77.08
161.8 58.46 77.47
161.9 58.61 77.87
162.0 58.76 78.26
162.1 58.92 78.65
162.2 59.07 79.05
162.3 59.22 79.44
162.4 59.38 79.84
162.5 59.53 80.23
162.6 59.69 80.63
162.7 59.85 81.02
162.8 60.0 81.42
162.9 60.16 81.81
163.0 60.32 82.21
163.1 60.48 82.61
163.2 60.63 83.01
163.3 60.79 83.4
163.4 60.95 83.8
163.5 61.11 84.2
163.6 61.27 84.6
163.7 61.43 85.0
163.8 61.6 85.39
163.9 61.76 85.79
164.0 61.92 86.19
164.1 62.08 86.59
164.2 62.25 86.99
164.3 62.41 87.39
164.4 62.58 87.79
164.5 62.74 88.19
164.6 62.91 88.6
164.7 63.07 89.0
164.8 63.24 89.4
164.9 63.41 89.8
165.0 63.57 90.2
165.1 63.74 90.61
165.2 63.91 91.01
165.3 64.08 91.41
165.4 64.25 91.82
165.5 64.42 92.22
165.6 64.59 92.62
165.7 64.76 93.03
165.8 64.93 93.43
165.9 65.1 93.84
166.0 65.28 94.25
166.1 65.45 94.65
166.2 65.62 95.06
166.3 65.8 95.46
166.4 65.97 95.87
166.5 66.15 96.28
166.6 66.33 96.69
166.7 66.5 97.1
166.8 66.68 97.5
166.9 66.86 97.91
167.0 67.04 98.32
167.1 67.21 98.73
167.2 67.39 99.14
167.3 67.57 99.55
167.4 67.75 99.96
167.5 67.94 100.37
167.6 68.12 100.78
167.7 68.3 101.19
167.8 68.48 101.6
167.9 68.67 102.02
168.0 68.85 102.43
168.1 69.03 102.84
168.2 69.22 103.25
168.3 69.41 103.67
168.4 69.59 104.08
168.5 69.78 104.49
168.6 69.97 104.91
168.7 70.15 105.32
168.8 70.34 105.74
168.9 70.53 106.15
169.0 70.72 106.57
169.1 70.91 106.99
169.2 71.1 107.4
169.3 71.3 107.82
169.4 71.49 108.24
169.5 71.68 108.65
169.6 71.87 109.07
169.7 72.07 109.49
169.8 72.26 109.91
169.9 72.46 110.33
170.0 72.65 110.75
170.1 72.85 111.17
170.2 73.05 111.59
170.3 73.25 112.01
170.4 73.45 112.43
170.5 73.64 112.85
170.6 73.84 113.27
170.7 74.05 113.69
170.8 74.25 114.12
170.9 74.45 114.54
171.0 74.65 114.96
171.1 74.85 115.39
171.2 75.06 115.81
171.3 75.26 116.23
171.4 75.47 116.66
171.5 75.67 117.08
171.6 75.88 117.51
171.7 76.09 117.94
171.8 76.3 118.36
171.9 76.5 118.79
172.0 76.71 119.22
172.1 76.92 119.64
172.2 77.13 120.07
172.3 77.34 120.5
172.4 77.56 120.93
172.5 77.77 121.36
172.6 77.98 121.78
172.7 78.2 122.21
172.8 78.41 122.64
172.9 78.63 123.07
173.0 78.84 123.51
173.1 79.06 123.94
173.2 79.28 124.37
173.3 79.5 124.8
173.4 79.72 125.23
173.5 79.94 125.67
173.6 80.16 126.1
173.7 80.38 126.53
173.8 80.6 126.97
173.9 80.82 127.4
174.0 81.05 127.84
174.1 81.27 128.27
174.2 81.49 128.71
174.3 81.72 129.14
174.4 81.95 129.58
174.5 82.17 130.02
174.6 82.4 130.45
174.7 82.63 130.89
174.8 82.86 131.33
174.9 83.09 131.77
175.0 83.32 132.21
175.1 83.55 132.65
175.2 83.79 133.09
175.3 84.02 133.53
175.4 84.25 133.97
175.5 84.49 134.41
175.6 84.72 134.85
175.7 84.96 135.29
175.8 85.2 135.74
175.9 85.44 136.18
176.0 85.68 136.62
176.1 85.92 137.07
176.2 86.16 137.51
176.3 86.4 137.96
176.4 86.64 138.4
176.5 86.88 138.85
176.6 87.13 139.29
176.7 87.37 139.74
176.8 87.62 140.19
176.9 87.86 140.63
177.0 88.11 141.08
177.1 88.36 141.53
177.2 88.61 141.98
177.3 88.86 142.43
177.4 89.11 142.88
177.5 89.36 143.33
177.6 89.61 143.78
177.7 89.87 144.23
177.8 90.12 144.68
177.9 90.37 145.13
178.0 90.63 145.58
178.1 90.89 146.04
178.2 91.15 146.49
178.3 91.4 146.94
178.4 91.66 147.4
178.5 91.92 147.85
178.6 92.18 148.31
178.7 92.45 148.76
178.8 92.71 149.22
178.9 92.97 149.67
179.0 93.24 150.13
179.1 93.5 150.59
179.2 93.77 151.05
179.3 94.04 151.5
179.4 94.31 151.96
179.5 94.58 152.42
179.6 94.85 152.88
179.7 95.12 153.34
179.8 95.39 153.8
179.9 95.67 154.26
180.0 95.94 154.72
180.1 96.22 155.19
180.2 96.49 155.65
180.3 96.77 156.11
180.4 97.05 156.57
180.5 97.33 157.04
180.6 97.61 157.5
180.7 97.89 157.97
180.8 98.17 158.43
180.9 98.45 158.9
181.0 98.74 159.36
181.1 99.02 159.83
181.2 99.31 160.3
181.3 99.6 160.77
181.4 99.88 161.24
181.5 100.17 161.7
181.6 100.46 162.17
181.7 100.75 162.64
181.8 101.05 163.11
181.9 101.34 163.58
182.0 101.63 164.05
182.1 101.93 164.53
182.2 102.23 165.0
182.3 102.52 165.47
182.4 102.82 165.94
182.5 103.12 166.42
182.6 103.42 166.89
182.7 103.73 167.37
182.8 104.03 167.84
182.9 104.33 168.32
183.0 104.64 168.79
183.1 104.94 169.27
183.2 105.25 169.75
183.3 105.56 170.22
183.4 105.87 170.7
183.5 106.18 171.18
183.6 106.49 171.66
183.7 106.81 172.14
183.8 107.12 172.62
183.9 107.44 173.1
184.0 107.75 173.58
184.1 108.07 174.06
184.2 108.39 174.55
184.3 108.71 175.03
184.4 109.03 175.51
184.5 109.35 175.99
184.6 109.68 176.48
184.7 110.0 176.96
184.8 110.33 177.45
184.9 110.65 177.93
185.0 110.98 178.42
185.1 111.31 178.91
185.2 111.64 179.39
185.3 111.97 179.88
185.4 112.31 180.37
185.5 112.64 180.86
185.6 112.98 181.35
185.7 113.31 181.84
185.8 113.65 182.33
185.9 113.99 182.82
186.0 114.33 183.31
186.1 114.67 183.8
186.2 115.02 184.3
186.3 115.36 184.79
186.4 115.71 185.28
186.5 116.05 185.78
186.6 116.4 186.27
186.7 116.75 186.77
186.8 117.1 187.26
186.9 117.46 187.76
187.0 117.81 188.26
187.1 118.16 188.75
187.2 118.52 189.25
187.3 118.88 189.75
187.4 119.24 190.25
187.5 119.6 190.75
187.6 119.96 191.25
187.7 120.32 191.75
187.8 120.69 192.25
187.9 121.05 192.75
188.0 121.42 193.25
188.1 121.79 193.75
188.2 122.16 194.26
188.3 122.53 194.76
188.4 122.9 195.26
188.5 123.28 195.77
188.6 123.65 196.27
188.7 124.03 196.78
188.8 124.41 197.29
188.9 124.79 197.79
189.0 125.17 198.3
189.1 125.55 198.81
189.2 125.94 199.32
189.3 126.32 199.83
189.4 126.71 200.34
189.5 127.1 200.85
189.6 127.49 201.35
189.7 127.88 201.87
189.8 128.27 202.38
189.9 128.67 202.89
190.0 129.06 203.4
190.1 129.46 203.91
190.2 129.86 204.43
190.3 130.26 204.94
190.4 130.66 205.46
190.5 131.07 205.97
190.6 131.47 206.49
190.7 131.88 207.01
190.8 132.29 207.52
190.9 132.7 208.04
191.0 133.11 208.56
191.1 133.53 209.08
191.2 133.94 209.6
191.3 134.36 210.12
191.4 134.78 210.64
191.5 135.2 211.16
191.6 135.62 211.68
191.7 136.04 212.2
191.8 136.47 212.72
191.9 136.89 213.25
192.0 137.32 213.77
192.1 137.75 214.29
192.2 138.18 214.82
192.3 138.62 215.34
192.4 139.05 215.87
192.5 139.49 216.39
192.6 139.93 216.92
192.7 140.37 217.45
192.8 140.81 217.98
192.9 141.25 218.5
193.0 141.7 219.03
193.1 142.15 219.56
193.2 142.6 220.09
193.3 143.05 220.62
193.4 143.5 221.15
193.5 143.95 221.68
193.6 144.41 222.21
193.7 144.87 222.75
193.8 145.33 223.28
193.9 145.79 223.81
194.0 146.25 224.35
194.1 146.72 224.88
194.2 147.19 225.42
194.3 147.66 225.95
194.4 148.13 226.49
194.5 148.6 227.02
194.6 149.07 227.56
194.7 149.55 228.1
194.8 150.03 228.64
194.9 150.51 229.18
195.0 150.99 229.72
195.1 151.48 230.25
195.2 151.96 230.79
195.3 152.45 231.34
195.4 152.94 231.88
195.5 153.44 232.42
195.6 153.93 232.96
195.7 154.43 233.5
195.8 154.93 234.05
195.9 155.43 234.59
196.0 155.93 235.13
196.1 156.43 235.68
196.2 156.94 236.22
196.3 157.45 236.77
196.4 157.96 237.31
196.5 158.47 237.86
196.6 158.99 238.41
196.7 159.51 238.96
196.8 160.02 239.5
196.9 160.55 240.05
197.0 161.07 240.6
197.1 161.6 241.15
197.2 162.12 241.7
197.3 162.65 242.25
197.4 163.19 242.8
197.5 163.72 243.35
197.6 164.26 243.91
197.7 164.8 244.46
197.8 165.34 245.01
197.9 165.88 245.57
198.0 166.43 246.12
198.1 166.97 246.67
198.2 167.52 247.23
198.3 168.08 247.79
198.4 168.63 248.34
198.5 169.19 248.9
198.6 169.75 249.45
198.7 170.31 250.01
198.8 170.87 250.57
198.9 171.44 251.13
199.0 172.01 251.68
199.1 172.58 252.24
199.2 173.15 252.8
199.3 173.73 253.36
199.4 174.31 253.92
199.5 174.89 254.48
199.6 175.47 255.04
199.7 176.06 255.6
199.8 176.65 256.17
199.9 177.24 256.73
200.0 177.83 257.29
200.1 178.43 257.85
200.2 179.03 258.42
200.3 179.63 258.98
200.4 180.23 259.54
200.5 180.84 260.11
200.6 181.44 260.67
200.7 182.06 261.24
200.8 182.67 261.81
